
T21C8 000:707 SEGGER J-Link V4.84a Log File (0001ms, 0286ms total)
T21C8 000:707 DLL Compiled: Apr  4 2014 18:02:19 (0001ms, 0286ms total)
T21C8 000:707 Logging started @ 2019-06-05 14:49 (0001ms, 0286ms total)
T21C8 000:708 JLINK_SetWarnOutHandler(...) (0001ms, 0287ms total)
T21C8 000:709 JLINK_OpenEx(...)
Firmware: J-Link ARM V8 compiled Nov 28 2014 13:44:46
Hardware: V8.00
S/N: 68000009
OEM: J-Link-CE
Feature(s): JFlash, FlashDL, RDI, FlashBP, GDB  returns O.K. (0272ms, 0559ms total)
T21C8 000:981 JLINK_SetErrorOutHandler(...) (0000ms, 0559ms total)
T21C8 000:981 JLINK_ExecCommand("ProjectFile = "C:\Users\Administrator\Desktop\ÓïÒô¹Ü¼Ò\Project\JLinkSettings.ini"", ...)  returns 0x00 (0001ms, 0560ms total)
T21C8 000:982 JLINK_ExecCommand("Device = STM32F103R8", ...)Device "STM32F103R8" selected (64 KB flash, 20 KB RAM).  returns 0x00 (0002ms, 0562ms total)
T21C8 000:984 JLINK_ExecCommand("DisableConnectionTimeout", ...)  returns 0x01 (0000ms, 0562ms total)
T21C8 000:984 JLINK_GetHardwareVersion()  returns 0x13880 (0000ms, 0562ms total)
T21C8 000:984 JLINK_GetDLLVersion()  returns 48401 (0000ms, 0562ms total)
T21C8 000:984 JLINK_GetDLLVersion()  returns 48401 (0000ms, 0562ms total)
T21C8 000:984 JLINK_GetCompileDateTime() (0000ms, 0562ms total)
T21C8 000:984 JLINK_GetFirmwareString(...) (0001ms, 0563ms total)
T21C8 000:985 JLINK_GetHardwareVersion()  returns 0x13880 (0000ms, 0563ms total)
T21C8 000:985 JLINK_TIF_Select(JLINKARM_TIF_SWD)  returns 0x00 (0003ms, 0566ms total)
T21C8 000:988 JLINK_SetSpeed(5000) (0000ms, 0566ms total)
T21C8 000:988 JLINK_GetId() >0x108 TIF>Found SWD-DP with ID 0x1BA01477 >0x0D TIF> >0x28 TIF> >0x0D TIF> >0x28 TIF> >0x0D TIF> >0x21 TIF> >0x0D TIF> >0x28 TIF> >0x0D TIF> >0x28 TIF> >0x0D TIF> >0x28 TIF> >0x0D TIF> >0x21 TIF> >0x0D TIF> >0x21 TIF> >0x0D TIF> >0x28 TIF> >0x0D TIF> >0x21 TIF> >0x0D TIF> >0x21 TIF> >0x108 TIF>Found SWD-DP with ID 0x1BA01477 >0x0D TIF> >0x21 TIF> >0x0D TIF> >0x28 TIF> >0x0D TIF> >0x28 TIF> >0x0D TIF> >0x21 TIF> >0x0D TIF> >0x28 TIF> >0x0D TIF> >0x21 TIF> >0x0D TIF> >0x21 TIF>
 >0x0D TIF> >0x21 TIF> >0x0D TIF> >0x21 TIF> >0x0D TIF> >0x28 TIF> >0x0D TIF> >0x28 TIF> >0x0D TIF> >0x21 TIF> >0x0D TIF> >0x28 TIF> >0x0D TIF> >0x28 TIF> >0x0D TIF> >0x28 TIF> >0x0D TIF> >0x21 TIF> >0x0D TIF> >0x21 TIF> >0x0D TIF> >0x28 TIF> >0x0D TIF> >0x21 TIF> >0x0D TIF> >0x21 TIF>Found Cortex-M3 r1p1, Little endian. -- CPU_WriteMem(4 bytes @ 0xE0002000) -- CPU_ReadMem(4 bytes @ 0xE000EDF0) -- CPU_ReadMem(4 bytes @ 0xE0002000)FPUnit: 6 code (BP) slots and 2 literal slots
 -- CPU_ReadMem(4 bytes @ 0xE000EDFC) -- CPU_ReadMem(4 bytes @ 0xE0001000) -- CPU_WriteMem(4 bytes @ 0xE0001000) -- CPU_ReadMem(4 bytes @ 0xE00FF010)TPIU fitted. -- CPU_ReadMem(4 bytes @ 0xE00FF014) -- CPU_ReadMem(4 bytes @ 0xE00FF018) >0x0D TIF> >0x21 TIF>  returns 0x1BA01477 (0065ms, 0631ms total)
T21C8 001:053 JLINK_GetDLLVersion()  returns 48401 (0000ms, 0631ms total)
T21C8 001:053 JLINK_CORE_GetFound()  returns 0x30000FF (0002ms, 0633ms total)
T21C8 001:055 JLINK_GetDebugInfo(0x100) -- Value=0xE00FF003  returns 0x00 (0000ms, 0633ms total)
T21C8 001:055 JLINK_GetDebugInfo(0x101)  returns 0xFFFFFFFF (0001ms, 0634ms total)
T21C8 001:056 JLINK_ReadMem (0xE0041FF0, 0x0010 Bytes, ...) -- CPU is running -- CPU_ReadMem(16 bytes @ 0xE0041FF0) -- Data:  00 00 00 00 00 00 00 00 00 00 00 00 00 00 00 00  returns 0x00 (0005ms, 0639ms total)
T21C8 001:061 JLINK_GetDebugInfo(0x102)  returns 0xFFFFFFFF (0000ms, 0639ms total)
T21C8 001:061 JLINK_GetDebugInfo(0x103)  returns 0xFFFFFFFF (0000ms, 0639ms total)
T21C8 001:061 JLINK_ReadMem (0xE0040FF0, 0x0010 Bytes, ...) -- CPU is running -- CPU_ReadMem(16 bytes @ 0xE0040FF0) -- Data:  0D 00 00 00 90 00 00 00 05 00 00 00 B1 00 00 00  returns 0x00 (0002ms, 0641ms total)
T21C8 001:063 JLINK_GetDebugInfo(0x104)  returns 0xFFFFFFFF (0000ms, 0641ms total)
T21C8 001:063 JLINK_GetDebugInfo(0x105)  returns 0xFFFFFFFF (0000ms, 0641ms total)
T21C8 001:063 JLINK_GetDebugInfo(0x106)  returns 0xFFFFFFFF (0000ms, 0641ms total)
T21C8 001:063 JLINK_GetDebugInfo(0x107)  returns 0xFFFFFFFF (0000ms, 0641ms total)
T21C8 001:063 JLINK_GetDebugInfo(0x10C)  returns 0xFFFFFFFF (0000ms, 0641ms total)
T21C8 001:063 JLINK_ReadMemU32(0xE000ED00, 0x0001 Items, ...) -- CPU is running -- CPU_ReadMem(4 bytes @ 0xE000ED00) -- Data:  31 C2 1F 41  returns 0x01 (0001ms, 0642ms total)
T21C8 001:064 JLINK_SetResetType(JLINKARM_RESET_TYPE_NORMAL)  returns JLINKARM_RESET_TYPE_NORMAL (0000ms, 0642ms total)
T21C8 001:064 JLINK_Reset() -- CPU is running -- CPU_WriteMem(4 bytes @ 0xE000EDF0) -- CPU is running -- CPU_WriteMem(4 bytes @ 0xE000EDFC) >0x35 TIF> -- CPU is running -- CPU_WriteMem(4 bytes @ 0xE000ED0C) -- CPU is running -- CPU_ReadMem(4 bytes @ 0xE000EDF0) -- CPU is running -- CPU_ReadMem(4 bytes @ 0xE000EDF0) -- CPU is running -- CPU_ReadMem(4 bytes @ 0xE000EDF0) -- CPU is running -- CPU_ReadMem(4 bytes @ 0xE000EDF0) -- CPU is running -- CPU_ReadMem(4 bytes @ 0xE000EDF0) -- CPU is running
 -- CPU_ReadMem(4 bytes @ 0xE000EDF0) -- CPU is running -- CPU_ReadMem(4 bytes @ 0xE000EDF0) -- CPU is running -- CPU_ReadMem(4 bytes @ 0xE000EDF0) -- CPU is running -- CPU_ReadMem(4 bytes @ 0xE000EDF0) -- CPU is running -- CPU_ReadMem(4 bytes @ 0xE000EDF0) -- CPU is running -- CPU_ReadMem(4 bytes @ 0xE000EDF0) -- CPU is running -- CPU_ReadMem(4 bytes @ 0xE000EDF0) -- CPU is running -- CPU_ReadMem(4 bytes @ 0xE000EDF0) -- CPU is running -- CPU_ReadMem(4 bytes @ 0xE000EDF0) -- CPU is running
 -- CPU_ReadMem(4 bytes @ 0xE000EDF0) -- CPU is running -- CPU_WriteMem(4 bytes @ 0xE000EDF0) -- CPU is running -- CPU_WriteMem(4 bytes @ 0xE000EDFC) -- CPU is running -- CPU_ReadMem(4 bytes @ 0xE000EDF0) -- CPU_WriteMem(4 bytes @ 0xE0002000) -- CPU_ReadMem(4 bytes @ 0xE000EDFC) -- CPU_ReadMem(4 bytes @ 0xE0001000) (0032ms, 0674ms total)
T21C8 001:096 JLINK_ReadReg(R15 (PC))  returns 0x08000146 (0000ms, 0674ms total)
T21C8 001:096 JLINK_ReadReg(XPSR)  returns 0x01000000 (0000ms, 0674ms total)
T21C8 001:096 JLINK_Halt()  returns 0x00 (0000ms, 0674ms total)
T21C8 001:096 JLINK_IsHalted()  returns TRUE (0001ms, 0675ms total)
T21C8 001:097 JLINK_ReadMemU32(0xE000EDF0, 0x0001 Items, ...) -- CPU_ReadMem(4 bytes @ 0xE000EDF0) -- Data:  03 00 03 00  returns 0x01 (0000ms, 0674ms total)
T21C8 001:097 JLINK_WriteU32(0xE000EDF0, 0xA05F0003) -- CPU_WriteMem(4 bytes @ 0xE000EDF0)  returns 0x00 (0002ms, 0676ms total)
T21C8 001:099 JLINK_WriteU32(0xE000EDFC, 0x01000000) -- CPU_WriteMem(4 bytes @ 0xE000EDFC)  returns 0x00 (0001ms, 0677ms total)
T21C8 001:100 JLINK_GetHWStatus(...)  returns 0x00 (0001ms, 0678ms total)
T21C8 001:101 JLINK_GetNumBPUnits(Type = 0xFFFFFF00)  returns 0x06 (0000ms, 0678ms total)
T21C8 001:101 JLINK_GetNumBPUnits(Type = 0xF0)  returns 0x2000 (0000ms, 0678ms total)
T21C8 001:101 JLINK_GetNumWPUnits()  returns 0x04 (0000ms, 0678ms total)
T21C8 001:101 JLINK_GetSpeed()  returns 0xFA0 (0000ms, 0678ms total)
T21C8 001:101 JLINK_ReadMemU32(0xE000E004, 0x0001 Items, ...) -- CPU_ReadMem(4 bytes @ 0xE000E004) -- Data:  01 00 00 00  returns 0x01 (0001ms, 0679ms total)
T21C8 001:102 JLINK_ReadMemU32(0xE000E004, 0x0001 Items, ...) -- CPU_ReadMem(4 bytes @ 0xE000E004) -- Data:  01 00 00 00  returns 0x01 (0001ms, 0680ms total)
T21C8 001:103 JLINK_WriteMem(0xE0001000, 0x001C Bytes, ...) -- Data:  01 00 00 00 00 00 00 00 00 00 00 00 00 00 00 00 ... -- CPU_WriteMem(28 bytes @ 0xE0001000)  returns 0x1C (0002ms, 0682ms total)
T21C8 001:105 JLINK_ReadMem (0xE0001000, 0x001C Bytes, ...) -- CPU_ReadMem(28 bytes @ 0xE0001000) -- Data:  01 00 00 40 00 00 00 00 00 00 00 00 00 00 00 00 ...  returns 0x00 (0001ms, 0683ms total)
T21C8 001:106 JLINK_ReadReg(R15 (PC))  returns 0x08000146 (0000ms, 0683ms total)
T21C8 001:106 JLINK_ReadReg(XPSR)  returns 0x01000000 (0000ms, 0683ms total)
T21C8 001:221 JLINK_SetResetType(JLINKARM_RESET_TYPE_NORMAL)  returns JLINKARM_RESET_TYPE_NORMAL (0000ms, 0683ms total)
T21C8 001:221 JLINK_Reset() -- CPU_WriteMem(4 bytes @ 0xE000EDF0) -- CPU_WriteMem(4 bytes @ 0xE000EDFC) >0x35 TIF> -- CPU_WriteMem(4 bytes @ 0xE000ED0C) -- CPU_ReadMem(4 bytes @ 0xE000EDF0) -- CPU_ReadMem(4 bytes @ 0xE000EDF0) -- CPU_ReadMem(4 bytes @ 0xE000EDF0) -- CPU_ReadMem(4 bytes @ 0xE000EDF0) -- CPU_ReadMem(4 bytes @ 0xE000EDF0) -- CPU_ReadMem(4 bytes @ 0xE000EDF0) -- CPU_ReadMem(4 bytes @ 0xE000EDF0) -- CPU_ReadMem(4 bytes @ 0xE000EDF0) -- CPU_ReadMem(4 bytes @ 0xE000EDF0)
 -- CPU_ReadMem(4 bytes @ 0xE000EDF0) -- CPU_WriteMem(4 bytes @ 0xE000EDF0) -- CPU_WriteMem(4 bytes @ 0xE000EDFC) -- CPU is running -- CPU_ReadMem(4 bytes @ 0xE000EDF0) -- CPU_WriteMem(4 bytes @ 0xE0002000) -- CPU_ReadMem(4 bytes @ 0xE000EDFC) -- CPU_ReadMem(4 bytes @ 0xE0001000) (0032ms, 0715ms total)
T21C8 001:253 JLINK_ReadReg(R15 (PC))  returns 0x08000146 (0000ms, 0715ms total)
T21C8 001:253 JLINK_ReadReg(XPSR)  returns 0x01000000 (0000ms, 0715ms total)
T21C8 001:254 JLINK_ReadMem (0x08000146, 0x0002 Bytes, ...) -- CPU_ReadMem(64 bytes @ 0x08000140) -- Updating C cache (64 bytes @ 0x08000140) -- Read from C cache (2 bytes @ 0x08000146) -- Data:  08 48  returns 0x00 (0002ms, 0717ms total)
T21C8 001:256 JLINK_ReadMem (0x08000148, 0x003C Bytes, ...) -- CPU_ReadMem(64 bytes @ 0x08000180) -- Updating C cache (64 bytes @ 0x08000180) -- Read from C cache (60 bytes @ 0x08000148) -- Data:  80 47 08 49 81 F3 08 88 07 48 00 47 FE E7 FE E7 ...  returns 0x00 (0001ms, 0718ms total)
T1F34 004:329 JLINK_SetBPEx(Addr = 0x080049D0, Type = 0xFFFFFFF2)  returns 0x00000001 (0001ms, 0719ms total)
T1F34 004:330 JLINK_SetBPEx(Addr = 0x08004A2E, Type = 0xFFFFFFF2)  returns 0x00000002 (0000ms, 0719ms total)
T1F34 004:330 JLINK_Go() -- CPU_WriteMem(4 bytes @ 0xE0002000) -- CPU_WriteMem(4 bytes @ 0xE0002008) -- CPU_WriteMem(4 bytes @ 0xE0002000) -- CPU_WriteMem(4 bytes @ 0xE000200C) -- CPU_WriteMem(4 bytes @ 0xE0002010) -- CPU_WriteMem(4 bytes @ 0xE0002014) -- CPU_WriteMem(4 bytes @ 0xE0002018) -- CPU_WriteMem(4 bytes @ 0xE000201C) -- CPU_WriteMem(4 bytes @ 0xE0001004) (0008ms, 0727ms total)
T1F34 004:439 JLINK_IsHalted()  returns TRUE (0003ms, 0730ms total)
T1F34 004:442 JLINK_Halt()  returns 0x00 (0000ms, 0727ms total)
T1F34 004:442 JLINK_IsHalted()  returns TRUE (0000ms, 0727ms total)
T1F34 004:442 JLINK_IsHalted()  returns TRUE (0000ms, 0727ms total)
T1F34 004:442 JLINK_IsHalted()  returns TRUE (0000ms, 0727ms total)
T1F34 004:442 JLINK_ReadReg(R15 (PC))  returns 0x080049D0 (0000ms, 0727ms total)
T1F34 004:442 JLINK_ReadReg(XPSR)  returns 0x61000000 (0000ms, 0727ms total)
T1F34 004:442 JLINK_ClrBPEx(BPHandle = 0x00000001)  returns 0x00 (0000ms, 0727ms total)
T1F34 004:442 JLINK_ClrBPEx(BPHandle = 0x00000002)  returns 0x00 (0000ms, 0727ms total)
T1F34 004:442 JLINK_ReadMemU32(0xE000ED30, 0x0001 Items, ...) -- CPU_ReadMem(4 bytes @ 0xE000ED30) -- Data:  03 00 00 00  returns 0x01 (0001ms, 0728ms total)
T1F34 004:443 JLINK_ReadMemU32(0xE0001028, 0x0001 Items, ...) -- CPU_ReadMem(4 bytes @ 0xE0001028) -- Data:  00 00 00 00  returns 0x01 (0001ms, 0729ms total)
T1F34 004:444 JLINK_ReadMemU32(0xE0001038, 0x0001 Items, ...) -- CPU_ReadMem(4 bytes @ 0xE0001038) -- Data:  00 02 00 00  returns 0x01 (0002ms, 0731ms total)
T1F34 004:446 JLINK_ReadMemU32(0xE0001048, 0x0001 Items, ...) -- CPU_ReadMem(4 bytes @ 0xE0001048) -- Data:  00 00 00 00  returns 0x01 (0001ms, 0732ms total)
T1F34 004:447 JLINK_ReadMemU32(0xE0001058, 0x0001 Items, ...) -- CPU_ReadMem(4 bytes @ 0xE0001058) -- Data:  00 00 00 00  returns 0x01 (0001ms, 0733ms total)
T1F34 004:448 JLINK_ReadReg(R0)  returns 0x080049D1 (0001ms, 0734ms total)
T1F34 004:449 JLINK_ReadReg(R1)  returns 0x200014B8 (0000ms, 0734ms total)
T1F34 004:449 JLINK_ReadReg(R2)  returns 0x00000000 (0000ms, 0734ms total)
T1F34 004:449 JLINK_ReadReg(R3)  returns 0x08002A3D (0000ms, 0734ms total)
T1F34 004:449 JLINK_ReadReg(R4)  returns 0x080071CC (0000ms, 0734ms total)
T1F34 004:449 JLINK_ReadReg(R5)  returns 0x080071CC (0000ms, 0734ms total)
T1F34 004:449 JLINK_ReadReg(R6)  returns 0x200002B8 (0000ms, 0734ms total)
T1F34 004:449 JLINK_ReadReg(R7)  returns 0x0001E000 (0000ms, 0734ms total)
T1F34 004:449 JLINK_ReadReg(R8)  returns 0x00000001 (0000ms, 0734ms total)
T1F34 004:449 JLINK_ReadReg(R9)  returns 0x00000000 (0000ms, 0734ms total)
T1F34 004:449 JLINK_ReadReg(R10)  returns 0x200013F4 (0001ms, 0735ms total)
T1F34 004:450 JLINK_ReadReg(R11)  returns 0x000000F1 (0000ms, 0735ms total)
T1F34 004:450 JLINK_ReadReg(R12)  returns 0x00000054 (0000ms, 0735ms total)
T1F34 004:450 JLINK_ReadReg(R13 (SP))  returns 0x200014B8 (0000ms, 0735ms total)
T1F34 004:450 JLINK_ReadReg(R14)  returns 0x0800095D (0000ms, 0735ms total)
T1F34 004:450 JLINK_ReadReg(R15 (PC))  returns 0x080049D0 (0000ms, 0735ms total)
T1F34 004:450 JLINK_ReadReg(XPSR)  returns 0x61000000 (0000ms, 0735ms total)
T1F34 004:450 JLINK_ReadReg(MSP)  returns 0x200014B8 (0000ms, 0735ms total)
T1F34 004:450 JLINK_ReadReg(PSP)  returns 0x20001000 (0000ms, 0735ms total)
T1F34 004:450 JLINK_ReadReg(CFBP)  returns 0x00000000 (0000ms, 0735ms total)
T21C8 004:452 JLINK_ReadMem (0x00000000, 0x0004 Bytes, ...) -- CPU_ReadMem(4 bytes @ 0x00000004) -- CPU_ReadMem(64 bytes @ 0x08000000) -- Updating C cache (64 bytes @ 0x08000000) -- Read from C cache (4 bytes @ 0x08000000) -- Data:  00 04 00 20  returns 0x00 (0002ms, 0737ms total)
T21C8 004:456 JLINK_ReadMemU32(0xE0001004, 0x0001 Items, ...) -- CPU_ReadMem(4 bytes @ 0xE0001004) -- Data:  0E 28 00 00  returns 0x01 (0001ms, 0738ms total)
T21C8 004:464 JLINK_ReadMem (0x080049D0, 0x003C Bytes, ...) -- CPU_ReadMem(128 bytes @ 0x080049C0) -- Updating C cache (128 bytes @ 0x080049C0) -- Read from C cache (60 bytes @ 0x080049D0) -- Data:  08 B5 00 BF FD F7 66 FB FC F7 24 F8 FC F7 D2 FF ...  returns 0x00 (0002ms, 0740ms total)
T1F34 018:220 JLINK_SetBPEx(Addr = 0x08004A2E, Type = 0xFFFFFFF2)  returns 0x00000003 (0000ms, 0740ms total)
T1F34 018:221 JLINK_Go() -- CPU_WriteMem(4 bytes @ 0xE0002000) -- CPU_WriteMem(4 bytes @ 0xE0002008) -- CPU_WriteMem(4 bytes @ 0xE000200C) (0003ms, 0743ms total)
T1F34 018:325 JLINK_IsHalted()  returns FALSE (0010ms, 0753ms total)
T1F34 018:435 JLINK_IsHalted()  returns FALSE (0001ms, 0744ms total)
T1F34 018:537 JLINK_IsHalted()  returns FALSE (0000ms, 0743ms total)
T1F34 018:639 JLINK_IsHalted()  returns FALSE (0001ms, 0744ms total)
T1F34 018:741 JLINK_ReadMemU32(0xE0001004, 0x0001 Items, ...) -- CPU is running -- CPU_ReadMem(4 bytes @ 0xE0001004) -- Data:  93 3D 39 02  returns 0x01 (0001ms, 0744ms total)
T1F34 018:749 JLINK_IsHalted()  returns FALSE (0001ms, 0745ms total)
T1F34 018:851 JLINK_IsHalted()  returns FALSE (0001ms, 0745ms total)
T1F34 018:953 JLINK_IsHalted()  returns FALSE (0001ms, 0745ms total)
T1F34 019:055 JLINK_IsHalted()  returns FALSE (0001ms, 0745ms total)
T1F34 019:157 JLINK_IsHalted()  returns FALSE (0001ms, 0745ms total)
T1F34 019:259 JLINK_ReadMemU32(0xE0001004, 0x0001 Items, ...) -- CPU is running -- CPU_ReadMem(4 bytes @ 0xE0001004) -- Data:  55 29 73 04  returns 0x01 (0002ms, 0746ms total)
T1F34 019:265 JLINK_IsHalted()  returns FALSE (0002ms, 0748ms total)
T1F34 019:368 JLINK_IsHalted()  returns FALSE (0001ms, 0747ms total)
T1F34 019:470 JLINK_IsHalted()  returns FALSE (0001ms, 0747ms total)
T1F34 019:572 JLINK_IsHalted()  returns FALSE (0001ms, 0747ms total)
T1F34 019:674 JLINK_IsHalted()  returns FALSE (0000ms, 0746ms total)
T1F34 019:775 JLINK_ReadMemU32(0xE0001004, 0x0001 Items, ...) -- CPU is running -- CPU_ReadMem(4 bytes @ 0xE0001004) -- Data:  F8 8A A8 06  returns 0x01 (0001ms, 0747ms total)
T1F34 019:780 JLINK_IsHalted()  returns FALSE (0001ms, 0748ms total)
T1F34 019:882 JLINK_IsHalted()  returns FALSE (0000ms, 0747ms total)
T1F34 019:984 JLINK_IsHalted()  returns FALSE (0001ms, 0748ms total)
T1F34 020:086 JLINK_IsHalted()  returns FALSE (0000ms, 0747ms total)
T1F34 020:187 JLINK_IsHalted()  returns FALSE (0001ms, 0748ms total)
T1F34 020:289 JLINK_ReadMemU32(0xE0001004, 0x0001 Items, ...) -- CPU is running -- CPU_ReadMem(4 bytes @ 0xE0001004) -- Data:  42 1B DF 08  returns 0x01 (0002ms, 0749ms total)
T1F34 020:303 JLINK_IsHalted()  returns FALSE (0001ms, 0750ms total)
T1F34 020:405 JLINK_IsHalted()  returns FALSE (0001ms, 0750ms total)
T1F34 020:507 JLINK_IsHalted()  returns FALSE (0000ms, 0749ms total)
T1F34 020:609 JLINK_IsHalted()  returns FALSE (0000ms, 0749ms total)
T1F34 020:710 JLINK_IsHalted()  returns FALSE (0001ms, 0750ms total)
T1F34 020:812 JLINK_ReadMemU32(0xE0001004, 0x0001 Items, ...) -- CPU is running -- CPU_ReadMem(4 bytes @ 0xE0001004) -- Data:  9C 43 D0 0A  returns 0x01 (0001ms, 0750ms total)
T1F34 020:819 JLINK_IsHalted()  returns TRUE (0004ms, 0754ms total)
T1F34 020:823 JLINK_Halt()  returns 0x00 (0000ms, 0750ms total)
T1F34 020:823 JLINK_IsHalted()  returns TRUE (0000ms, 0750ms total)
T1F34 020:824 JLINK_IsHalted()  returns TRUE (0000ms, 0750ms total)
T1F34 020:824 JLINK_IsHalted()  returns TRUE (0000ms, 0750ms total)
T1F34 020:824 JLINK_ReadReg(R15 (PC))  returns 0x08004A2E (0000ms, 0750ms total)
T1F34 020:824 JLINK_ReadReg(XPSR)  returns 0x61000000 (0000ms, 0750ms total)
T1F34 020:824 JLINK_ClrBPEx(BPHandle = 0x00000003)  returns 0x00 (0001ms, 0751ms total)
T1F34 020:825 JLINK_ReadMemU32(0xE000ED30, 0x0001 Items, ...) -- CPU_ReadMem(4 bytes @ 0xE000ED30) -- Data:  03 00 00 00  returns 0x01 (0001ms, 0752ms total)
T1F34 020:826 JLINK_ReadMemU32(0xE0001028, 0x0001 Items, ...) -- CPU_ReadMem(4 bytes @ 0xE0001028) -- Data:  00 00 00 00  returns 0x01 (0002ms, 0754ms total)
T1F34 020:828 JLINK_ReadMemU32(0xE0001038, 0x0001 Items, ...) -- CPU_ReadMem(4 bytes @ 0xE0001038) -- Data:  00 02 00 00  returns 0x01 (0002ms, 0756ms total)
T1F34 020:830 JLINK_ReadMemU32(0xE0001048, 0x0001 Items, ...) -- CPU_ReadMem(4 bytes @ 0xE0001048) -- Data:  00 00 00 00  returns 0x01 (0001ms, 0757ms total)
T1F34 020:831 JLINK_ReadMemU32(0xE0001058, 0x0001 Items, ...) -- CPU_ReadMem(4 bytes @ 0xE0001058) -- Data:  00 00 00 00  returns 0x01 (0002ms, 0759ms total)
T1F34 020:833 JLINK_ReadReg(R0)  returns 0x00000056 (0000ms, 0759ms total)
T1F34 020:833 JLINK_ReadReg(R1)  returns 0x20000158 (0001ms, 0760ms total)
T1F34 020:834 JLINK_ReadReg(R2)  returns 0x00000080 (0000ms, 0760ms total)
T1F34 020:834 JLINK_ReadReg(R3)  returns 0x40013804 (0000ms, 0760ms total)
T1F34 020:834 JLINK_ReadReg(R4)  returns 0x080071CC (0000ms, 0760ms total)
T1F34 020:834 JLINK_ReadReg(R5)  returns 0x080071CC (0001ms, 0761ms total)
T1F34 020:835 JLINK_ReadReg(R6)  returns 0x200002B8 (0000ms, 0761ms total)
T1F34 020:835 JLINK_ReadReg(R7)  returns 0x0001E000 (0000ms, 0761ms total)
T1F34 020:835 JLINK_ReadReg(R8)  returns 0x00000001 (0000ms, 0761ms total)
T1F34 020:835 JLINK_ReadReg(R9)  returns 0x00000000 (0001ms, 0762ms total)
T1F34 020:836 JLINK_ReadReg(R10)  returns 0x200013F4 (0000ms, 0762ms total)
T1F34 020:836 JLINK_ReadReg(R11)  returns 0x000000F1 (0000ms, 0762ms total)
T1F34 020:836 JLINK_ReadReg(R12)  returns 0x00000000 (0000ms, 0762ms total)
T1F34 020:837 JLINK_ReadReg(R13 (SP))  returns 0x200014B0 (0000ms, 0763ms total)
T1F34 020:837 JLINK_ReadReg(R14)  returns 0x08002D0F (0000ms, 0763ms total)
T1F34 020:837 JLINK_ReadReg(R15 (PC))  returns 0x08004A2E (0000ms, 0763ms total)
T1F34 020:837 JLINK_ReadReg(XPSR)  returns 0x61000000 (0001ms, 0764ms total)
T1F34 020:838 JLINK_ReadReg(MSP)  returns 0x200014B0 (0000ms, 0764ms total)
T1F34 020:838 JLINK_ReadReg(PSP)  returns 0x20001000 (0000ms, 0764ms total)
T1F34 020:838 JLINK_ReadReg(CFBP)  returns 0x00000000 (0000ms, 0764ms total)
T21C8 020:839 JLINK_ReadMem (0x200014B4, 0x0004 Bytes, ...) -- CPU_ReadMem(64 bytes @ 0x20001480) -- Updating C cache (64 bytes @ 0x20001480) -- Read from C cache (4 bytes @ 0x200014B4) -- Data:  5D 09 00 08  returns 0x00 (0002ms, 0767ms total)
T21C8 020:841 JLINK_ReadMem (0x00000000, 0x0004 Bytes, ...) -- CPU_ReadMem(4 bytes @ 0x00000004) -- CPU_ReadMem(64 bytes @ 0x08000000) -- Updating C cache (64 bytes @ 0x08000000) -- Read from C cache (4 bytes @ 0x08000000) -- Data:  00 04 00 20  returns 0x00 (0004ms, 0771ms total)
T21C8 020:845 JLINK_ReadMemU32(0xE0001004, 0x0001 Items, ...) -- CPU_ReadMem(4 bytes @ 0xE0001004) -- Data:  9C 43 D0 0A  returns 0x01 (0001ms, 0772ms total)
T21C8 020:862 JLINK_ReadMem (0x08004A2E, 0x0002 Bytes, ...) -- CPU_ReadMem(64 bytes @ 0x08004A00) -- Updating C cache (64 bytes @ 0x08004A00) -- Read from C cache (2 bytes @ 0x08004A2E) -- Data:  00 F0  returns 0x00 (0002ms, 0774ms total)
T21C8 020:864 JLINK_ReadMem (0x08004A30, 0x003C Bytes, ...) -- CPU_ReadMem(64 bytes @ 0x08004A40) -- Updating C cache (64 bytes @ 0x08004A40) -- Read from C cache (60 bytes @ 0x08004A30) -- Data:  57 F9 FC E7 B4 AE BF DA B3 F5 CA BC BB AF B3 C9 ...  returns 0x00 (0001ms, 0775ms total)
T1F34 023:003 JLINK_Step() -- Read from C cache (2 bytes @ 0x08004A2E) -- Read from C cache (2 bytes @ 0x08004A30) -- Simulated  returns 0x00 (0002ms, 0777ms total)
T1F34 023:005 JLINK_ReadReg(R15 (PC))  returns 0x08004CE0 (0000ms, 0777ms total)
T1F34 023:005 JLINK_ReadReg(XPSR)  returns 0x61000000 (0000ms, 0777ms total)
T1F34 023:005 JLINK_ReadReg(R0)  returns 0x00000056 (0000ms, 0777ms total)
T1F34 023:005 JLINK_ReadReg(R1)  returns 0x20000158 (0000ms, 0777ms total)
T1F34 023:005 JLINK_ReadReg(R2)  returns 0x00000080 (0001ms, 0778ms total)
T1F34 023:006 JLINK_ReadReg(R3)  returns 0x40013804 (0000ms, 0778ms total)
T1F34 023:006 JLINK_ReadReg(R4)  returns 0x080071CC (0000ms, 0778ms total)
T1F34 023:006 JLINK_ReadReg(R5)  returns 0x080071CC (0000ms, 0778ms total)
T1F34 023:006 JLINK_ReadReg(R6)  returns 0x200002B8 (0000ms, 0778ms total)
T1F34 023:006 JLINK_ReadReg(R7)  returns 0x0001E000 (0000ms, 0778ms total)
T1F34 023:006 JLINK_ReadReg(R8)  returns 0x00000001 (0000ms, 0778ms total)
T1F34 023:006 JLINK_ReadReg(R9)  returns 0x00000000 (0000ms, 0778ms total)
T1F34 023:006 JLINK_ReadReg(R10)  returns 0x200013F4 (0000ms, 0778ms total)
T1F34 023:006 JLINK_ReadReg(R11)  returns 0x000000F1 (0000ms, 0778ms total)
T1F34 023:006 JLINK_ReadReg(R12)  returns 0x00000000 (0000ms, 0778ms total)
T1F34 023:006 JLINK_ReadReg(R13 (SP))  returns 0x200014B0 (0000ms, 0778ms total)
T1F34 023:006 JLINK_ReadReg(R14)  returns 0x08004A33 (0000ms, 0778ms total)
T1F34 023:006 JLINK_ReadReg(R15 (PC))  returns 0x08004CE0 (0000ms, 0778ms total)
T1F34 023:006 JLINK_ReadReg(XPSR)  returns 0x61000000 (0000ms, 0778ms total)
T1F34 023:006 JLINK_ReadReg(MSP)  returns 0x200014B0 (0001ms, 0779ms total)
T1F34 023:007 JLINK_ReadReg(PSP)  returns 0x20001000 (0000ms, 0779ms total)
T1F34 023:007 JLINK_ReadReg(CFBP)  returns 0x00000000 (0000ms, 0779ms total)
T21C8 023:007 JLINK_ReadMem (0x200014B4, 0x0004 Bytes, ...) -- Read from C cache (4 bytes @ 0x200014B4) -- Data:  5D 09 00 08  returns 0x00 (0000ms, 0779ms total)
T21C8 023:008 JLINK_ReadMem (0x00000000, 0x0004 Bytes, ...) -- Read from C cache (4 bytes @ 0x08000000) -- Data:  00 04 00 20  returns 0x00 (0000ms, 0779ms total)
T21C8 023:008 JLINK_ReadMemU32(0xE0001004, 0x0001 Items, ...) -- Data:  9C 43 D0 0A  returns 0x01 (0000ms, 0779ms total)
T21C8 023:011 JLINK_ReadMem (0x08004CE0, 0x003C Bytes, ...) -- CPU_ReadMem(128 bytes @ 0x08004CC0) -- Updating C cache (128 bytes @ 0x08004CC0) -- Read from C cache (60 bytes @ 0x08004CE0) -- Data:  10 B5 59 48 00 78 10 28 15 D0 03 DC 48 B1 01 28 ...  returns 0x00 (0003ms, 0782ms total)
T1F34 024:210 JLINK_Step() -- Read from C cache (2 bytes @ 0x08004CE0) -- CPU_WriteMem(8 bytes @ 0x200014A8) -- Simulated  returns 0x00 (0003ms, 0785ms total)
T1F34 024:213 JLINK_ReadReg(R15 (PC))  returns 0x08004CE2 (0000ms, 0785ms total)
T1F34 024:213 JLINK_ReadReg(XPSR)  returns 0x61000000 (0000ms, 0785ms total)
T1F34 024:213 JLINK_ReadReg(R0)  returns 0x00000056 (0000ms, 0785ms total)
T1F34 024:213 JLINK_ReadReg(R1)  returns 0x20000158 (0000ms, 0785ms total)
T1F34 024:213 JLINK_ReadReg(R2)  returns 0x00000080 (0000ms, 0785ms total)
T1F34 024:213 JLINK_ReadReg(R3)  returns 0x40013804 (0000ms, 0785ms total)
T1F34 024:214 JLINK_ReadReg(R4)  returns 0x080071CC (0000ms, 0786ms total)
T1F34 024:214 JLINK_ReadReg(R5)  returns 0x080071CC (0000ms, 0786ms total)
T1F34 024:214 JLINK_ReadReg(R6)  returns 0x200002B8 (0000ms, 0786ms total)
T1F34 024:214 JLINK_ReadReg(R7)  returns 0x0001E000 (0000ms, 0786ms total)
T1F34 024:214 JLINK_ReadReg(R8)  returns 0x00000001 (0000ms, 0786ms total)
T1F34 024:214 JLINK_ReadReg(R9)  returns 0x00000000 (0000ms, 0786ms total)
T1F34 024:214 JLINK_ReadReg(R10)  returns 0x200013F4 (0000ms, 0786ms total)
T1F34 024:214 JLINK_ReadReg(R11)  returns 0x000000F1 (0000ms, 0786ms total)
T1F34 024:214 JLINK_ReadReg(R12)  returns 0x00000000 (0000ms, 0786ms total)
T1F34 024:214 JLINK_ReadReg(R13 (SP))  returns 0x200014A8 (0000ms, 0786ms total)
T1F34 024:214 JLINK_ReadReg(R14)  returns 0x08004A33 (0000ms, 0786ms total)
T1F34 024:214 JLINK_ReadReg(R15 (PC))  returns 0x08004CE2 (0000ms, 0786ms total)
T1F34 024:214 JLINK_ReadReg(XPSR)  returns 0x61000000 (0000ms, 0786ms total)
T1F34 024:214 JLINK_ReadReg(MSP)  returns 0x200014A8 (0000ms, 0786ms total)
T1F34 024:214 JLINK_ReadReg(PSP)  returns 0x20001000 (0000ms, 0786ms total)
T1F34 024:214 JLINK_ReadReg(CFBP)  returns 0x00000000 (0001ms, 0787ms total)
T21C8 024:216 JLINK_ReadMem (0x200014AC, 0x0004 Bytes, ...) -- CPU_ReadMem(64 bytes @ 0x20001480) -- Updating C cache (64 bytes @ 0x20001480) -- Read from C cache (4 bytes @ 0x200014AC) -- Data:  33 4A 00 08  returns 0x00 (0001ms, 0788ms total)
T21C8 024:217 JLINK_ReadMem (0x200014A8, 0x0004 Bytes, ...) -- Read from C cache (4 bytes @ 0x200014A8) -- Data:  CC 71 00 08  returns 0x00 (0001ms, 0789ms total)
T21C8 024:218 JLINK_ReadMem (0x200014B4, 0x0004 Bytes, ...) -- Read from C cache (4 bytes @ 0x200014B4) -- Data:  5D 09 00 08  returns 0x00 (0000ms, 0789ms total)
T21C8 024:218 JLINK_ReadMem (0x00000000, 0x0004 Bytes, ...) -- Read from C cache (4 bytes @ 0x08000000) -- Data:  00 04 00 20  returns 0x00 (0000ms, 0789ms total)
T21C8 024:218 JLINK_ReadMemU32(0xE0001004, 0x0001 Items, ...) -- Data:  9C 43 D0 0A  returns 0x01 (0000ms, 0789ms total)
T21C8 024:223 JLINK_ReadMem (0x08004CE2, 0x0002 Bytes, ...) -- Read from C cache (2 bytes @ 0x08004CE2) -- Data:  59 48  returns 0x00 (0000ms, 0789ms total)
T21C8 024:223 JLINK_ReadMem (0x08004CE4, 0x003C Bytes, ...) -- Read from C cache (60 bytes @ 0x08004CE4) -- Data:  00 78 10 28 15 D0 03 DC 48 B1 01 28 76 D1 04 E0 ...  returns 0x00 (0001ms, 0790ms total)
T1F34 024:650 JLINK_Step() -- Read from C cache (2 bytes @ 0x08004CE2) -- CPU_ReadMem(64 bytes @ 0x08004E40) -- Updating C cache (64 bytes @ 0x08004E40) -- Read from C cache (4 bytes @ 0x08004E48) -- Simulated  returns 0x00 (0002ms, 0792ms total)
T1F34 024:652 JLINK_ReadReg(R15 (PC))  returns 0x08004CE4 (0000ms, 0792ms total)
T1F34 024:652 JLINK_ReadReg(XPSR)  returns 0x61000000 (0000ms, 0792ms total)
T1F34 024:652 JLINK_Step() -- Read from C cache (2 bytes @ 0x08004CE4) -- CPU_ReadMem(64 bytes @ 0x20000000) -- Updating C cache (64 bytes @ 0x20000000) -- Read from C cache (1 bytes @ 0x2000000E) -- Simulated  returns 0x00 (0002ms, 0794ms total)
T1F34 024:654 JLINK_ReadReg(R15 (PC))  returns 0x08004CE6 (0000ms, 0794ms total)
T1F34 024:654 JLINK_ReadReg(XPSR)  returns 0x61000000 (0000ms, 0794ms total)
T1F34 024:654 JLINK_Step() -- Read from C cache (2 bytes @ 0x08004CE6) -- Simulated  returns 0x00 (0000ms, 0794ms total)
T1F34 024:654 JLINK_ReadReg(R15 (PC))  returns 0x08004CE8 (0000ms, 0794ms total)
T1F34 024:654 JLINK_ReadReg(XPSR)  returns 0x81000000 (0000ms, 0794ms total)
T1F34 024:654 JLINK_Step() -- Read from C cache (2 bytes @ 0x08004CE8) -- Simulated  returns 0x00 (0000ms, 0794ms total)
T1F34 024:654 JLINK_ReadReg(R15 (PC))  returns 0x08004CEA (0000ms, 0794ms total)
T1F34 024:654 JLINK_ReadReg(XPSR)  returns 0x81000000 (0000ms, 0794ms total)
T1F34 024:655 JLINK_Step() -- Read from C cache (2 bytes @ 0x08004CEA) -- Simulated  returns 0x00 (0000ms, 0794ms total)
T1F34 024:655 JLINK_ReadReg(R15 (PC))  returns 0x08004CEC (0000ms, 0794ms total)
T1F34 024:655 JLINK_ReadReg(XPSR)  returns 0x81000000 (0000ms, 0794ms total)
T1F34 024:655 JLINK_Step() -- Read from C cache (2 bytes @ 0x08004CEC) -- Simulated  returns 0x00 (0000ms, 0794ms total)
T1F34 024:655 JLINK_ReadReg(R15 (PC))  returns 0x08004D02 (0000ms, 0794ms total)
T1F34 024:655 JLINK_ReadReg(XPSR)  returns 0x81000000 (0000ms, 0794ms total)
T1F34 024:655 JLINK_ReadReg(R0)  returns 0x00000000 (0000ms, 0794ms total)
T1F34 024:655 JLINK_ReadReg(R1)  returns 0x20000158 (0000ms, 0794ms total)
T1F34 024:655 JLINK_ReadReg(R2)  returns 0x00000080 (0001ms, 0795ms total)
T1F34 024:656 JLINK_ReadReg(R3)  returns 0x40013804 (0000ms, 0795ms total)
T1F34 024:656 JLINK_ReadReg(R4)  returns 0x080071CC (0000ms, 0795ms total)
T1F34 024:656 JLINK_ReadReg(R5)  returns 0x080071CC (0000ms, 0795ms total)
T1F34 024:656 JLINK_ReadReg(R6)  returns 0x200002B8 (0000ms, 0795ms total)
T1F34 024:656 JLINK_ReadReg(R7)  returns 0x0001E000 (0000ms, 0795ms total)
T1F34 024:656 JLINK_ReadReg(R8)  returns 0x00000001 (0000ms, 0795ms total)
T1F34 024:656 JLINK_ReadReg(R9)  returns 0x00000000 (0000ms, 0795ms total)
T1F34 024:656 JLINK_ReadReg(R10)  returns 0x200013F4 (0000ms, 0795ms total)
T1F34 024:656 JLINK_ReadReg(R11)  returns 0x000000F1 (0000ms, 0795ms total)
T1F34 024:656 JLINK_ReadReg(R12)  returns 0x00000000 (0000ms, 0795ms total)
T1F34 024:656 JLINK_ReadReg(R13 (SP))  returns 0x200014A8 (0001ms, 0796ms total)
T1F34 024:657 JLINK_ReadReg(R14)  returns 0x08004A33 (0000ms, 0796ms total)
T1F34 024:657 JLINK_ReadReg(R15 (PC))  returns 0x08004D02 (0000ms, 0796ms total)
T1F34 024:657 JLINK_ReadReg(XPSR)  returns 0x81000000 (0000ms, 0796ms total)
T1F34 024:657 JLINK_ReadReg(MSP)  returns 0x200014A8 (0000ms, 0796ms total)
T1F34 024:657 JLINK_ReadReg(PSP)  returns 0x20001000 (0000ms, 0796ms total)
T1F34 024:657 JLINK_ReadReg(CFBP)  returns 0x00000000 (0000ms, 0796ms total)
T21C8 024:658 JLINK_ReadMem (0x200014AC, 0x0004 Bytes, ...) -- Read from C cache (4 bytes @ 0x200014AC) -- Data:  33 4A 00 08  returns 0x00 (0000ms, 0796ms total)
T21C8 024:658 JLINK_ReadMem (0x200014A8, 0x0004 Bytes, ...) -- Read from C cache (4 bytes @ 0x200014A8) -- Data:  CC 71 00 08  returns 0x00 (0000ms, 0796ms total)
T21C8 024:658 JLINK_ReadMem (0x200014B4, 0x0004 Bytes, ...) -- Read from C cache (4 bytes @ 0x200014B4) -- Data:  5D 09 00 08  returns 0x00 (0000ms, 0796ms total)
T21C8 024:658 JLINK_ReadMem (0x00000000, 0x0004 Bytes, ...) -- Read from C cache (4 bytes @ 0x08000000) -- Data:  00 04 00 20  returns 0x00 (0000ms, 0796ms total)
T21C8 024:658 JLINK_ReadMemU32(0xE0001004, 0x0001 Items, ...) -- Data:  9C 43 D0 0A  returns 0x01 (0000ms, 0796ms total)
T21C8 024:664 JLINK_ReadMem (0x08004D02, 0x0002 Bytes, ...) -- Read from C cache (2 bytes @ 0x08004D02) -- Data:  01 20  returns 0x00 (0000ms, 0796ms total)
T21C8 024:664 JLINK_ReadMem (0x08004D04, 0x003C Bytes, ...) -- Read from C cache (60 bytes @ 0x08004D04) -- Data:  50 49 08 70 FD F7 D9 F9 10 B9 31 20 4D 49 08 70 ...  returns 0x00 (0000ms, 0796ms total)
T1F34 026:122 JLINK_Step() -- Read from C cache (2 bytes @ 0x08004D02) -- Simulated  returns 0x00 (0002ms, 0798ms total)
T1F34 026:124 JLINK_ReadReg(R15 (PC))  returns 0x08004D04 (0000ms, 0798ms total)
T1F34 026:124 JLINK_ReadReg(XPSR)  returns 0x01000000 (0000ms, 0798ms total)
T1F34 026:124 JLINK_Step() -- Read from C cache (2 bytes @ 0x08004D04) -- Read from C cache (4 bytes @ 0x08004E48) -- Simulated  returns 0x00 (0000ms, 0798ms total)
T1F34 026:124 JLINK_ReadReg(R15 (PC))  returns 0x08004D06 (0000ms, 0798ms total)
T1F34 026:124 JLINK_ReadReg(XPSR)  returns 0x01000000 (0000ms, 0798ms total)
T1F34 026:124 JLINK_Step() -- Read from C cache (2 bytes @ 0x08004D06) -- CPU_WriteMem(1 bytes @ 0x2000000E) -- Simulated  returns 0x00 (0002ms, 0800ms total)
T1F34 026:126 JLINK_ReadReg(R15 (PC))  returns 0x08004D08 (0000ms, 0800ms total)
T1F34 026:126 JLINK_ReadReg(XPSR)  returns 0x01000000 (0000ms, 0800ms total)
T1F34 026:126 JLINK_ReadReg(R0)  returns 0x00000001 (0000ms, 0800ms total)
T1F34 026:126 JLINK_ReadReg(R1)  returns 0x2000000E (0000ms, 0800ms total)
T1F34 026:126 JLINK_ReadReg(R2)  returns 0x00000080 (0000ms, 0800ms total)
T1F34 026:126 JLINK_ReadReg(R3)  returns 0x40013804 (0000ms, 0800ms total)
T1F34 026:126 JLINK_ReadReg(R4)  returns 0x080071CC (0001ms, 0801ms total)
T1F34 026:127 JLINK_ReadReg(R5)  returns 0x080071CC (0000ms, 0801ms total)
T1F34 026:127 JLINK_ReadReg(R6)  returns 0x200002B8 (0000ms, 0801ms total)
T1F34 026:127 JLINK_ReadReg(R7)  returns 0x0001E000 (0000ms, 0801ms total)
T1F34 026:127 JLINK_ReadReg(R8)  returns 0x00000001 (0000ms, 0801ms total)
T1F34 026:127 JLINK_ReadReg(R9)  returns 0x00000000 (0000ms, 0801ms total)
T1F34 026:127 JLINK_ReadReg(R10)  returns 0x200013F4 (0000ms, 0801ms total)
T1F34 026:127 JLINK_ReadReg(R11)  returns 0x000000F1 (0000ms, 0801ms total)
T1F34 026:127 JLINK_ReadReg(R12)  returns 0x00000000 (0000ms, 0801ms total)
T1F34 026:127 JLINK_ReadReg(R13 (SP))  returns 0x200014A8 (0000ms, 0801ms total)
T1F34 026:127 JLINK_ReadReg(R14)  returns 0x08004A33 (0000ms, 0801ms total)
T1F34 026:127 JLINK_ReadReg(R15 (PC))  returns 0x08004D08 (0000ms, 0801ms total)
T1F34 026:127 JLINK_ReadReg(XPSR)  returns 0x01000000 (0000ms, 0801ms total)
T1F34 026:127 JLINK_ReadReg(MSP)  returns 0x200014A8 (0000ms, 0801ms total)
T1F34 026:127 JLINK_ReadReg(PSP)  returns 0x20001000 (0001ms, 0802ms total)
T1F34 026:128 JLINK_ReadReg(CFBP)  returns 0x00000000 (0000ms, 0802ms total)
T21C8 026:128 JLINK_ReadMem (0x200014AC, 0x0004 Bytes, ...) -- Read from C cache (4 bytes @ 0x200014AC) -- Data:  33 4A 00 08  returns 0x00 (0000ms, 0802ms total)
T21C8 026:128 JLINK_ReadMem (0x200014A8, 0x0004 Bytes, ...) -- Read from C cache (4 bytes @ 0x200014A8) -- Data:  CC 71 00 08  returns 0x00 (0000ms, 0802ms total)
T21C8 026:128 JLINK_ReadMem (0x200014B4, 0x0004 Bytes, ...) -- Read from C cache (4 bytes @ 0x200014B4) -- Data:  5D 09 00 08  returns 0x00 (0000ms, 0802ms total)
T21C8 026:128 JLINK_ReadMem (0x00000000, 0x0004 Bytes, ...) -- CPU_ReadMem(4 bytes @ 0x00000004) -- Read from C cache (4 bytes @ 0x08000000) -- Data:  00 04 00 20  returns 0x00 (0001ms, 0803ms total)
T21C8 026:129 JLINK_ReadMemU32(0xE0001004, 0x0001 Items, ...) -- Data:  9C 43 D0 0A  returns 0x01 (0000ms, 0803ms total)
T21C8 026:135 JLINK_ReadMem (0x08004D08, 0x003C Bytes, ...) -- CPU_ReadMem(64 bytes @ 0x08004D40) -- Updating C cache (64 bytes @ 0x08004D40) -- Read from C cache (60 bytes @ 0x08004D08) -- Data:  FD F7 D9 F9 10 B9 31 20 4D 49 08 70 96 E0 FC F7 ...  returns 0x00 (0001ms, 0804ms total)
T1F34 026:593 JLINK_SetBPEx(Addr = 0x08004D0C, Type = 0xFFFFFFF2)  returns 0x00000004 (0000ms, 0804ms total)
T1F34 026:593 JLINK_SetBPEx(Addr = 0x08004A2E, Type = 0xFFFFFFF2)  returns 0x00000005 (0000ms, 0804ms total)
T1F34 026:593 JLINK_Go() -- CPU_WriteMem(4 bytes @ 0xE0002000) -- CPU_WriteMem(4 bytes @ 0xE0002000) -- CPU_WriteMem(4 bytes @ 0xE0002008) -- CPU_WriteMem(4 bytes @ 0xE000200C) -- CPU_WriteMem(4 bytes @ 0xE0001004) (0007ms, 0811ms total)
T1F34 026:701 JLINK_IsHalted()  returns FALSE (0000ms, 0811ms total)
T1F34 026:803 JLINK_IsHalted()  returns FALSE (0001ms, 0812ms total)
T1F34 026:905 JLINK_IsHalted()  returns FALSE (0001ms, 0812ms total)
T1F34 027:007 JLINK_IsHalted()  returns FALSE (0001ms, 0812ms total)
T1F34 027:109 JLINK_ReadMemU32(0xE0001004, 0x0001 Items, ...) -- CPU is running -- CPU_ReadMem(4 bytes @ 0xE0001004) -- Data:  99 93 AE 0C  returns 0x01 (0001ms, 0812ms total)
T1F34 027:113 JLINK_IsHalted()  returns TRUE (0005ms, 0817ms total)
T1F34 027:118 JLINK_Halt()  returns 0x00 (0000ms, 0812ms total)
T1F34 027:118 JLINK_IsHalted()  returns TRUE (0000ms, 0812ms total)
T1F34 027:118 JLINK_IsHalted()  returns TRUE (0000ms, 0812ms total)
T1F34 027:118 JLINK_IsHalted()  returns TRUE (0000ms, 0812ms total)
T1F34 027:118 JLINK_ReadReg(R15 (PC))  returns 0x08004D0C (0001ms, 0813ms total)
T1F34 027:119 JLINK_ReadReg(XPSR)  returns 0x21000000 (0000ms, 0813ms total)
T1F34 027:119 JLINK_ClrBPEx(BPHandle = 0x00000004)  returns 0x00 (0000ms, 0813ms total)
T1F34 027:119 JLINK_ClrBPEx(BPHandle = 0x00000005)  returns 0x00 (0000ms, 0813ms total)
T1F34 027:119 JLINK_ReadMemU32(0xE000ED30, 0x0001 Items, ...) -- CPU_ReadMem(4 bytes @ 0xE000ED30) -- Data:  03 00 00 00  returns 0x01 (0002ms, 0815ms total)
T1F34 027:121 JLINK_ReadMemU32(0xE0001028, 0x0001 Items, ...) -- CPU_ReadMem(4 bytes @ 0xE0001028) -- Data:  00 00 00 00  returns 0x01 (0002ms, 0817ms total)
T1F34 027:123 JLINK_ReadMemU32(0xE0001038, 0x0001 Items, ...) -- CPU_ReadMem(4 bytes @ 0xE0001038) -- Data:  00 02 00 00  returns 0x01 (0003ms, 0820ms total)
T1F34 027:127 JLINK_ReadMemU32(0xE0001048, 0x0001 Items, ...) -- CPU_ReadMem(4 bytes @ 0xE0001048) -- Data:  00 00 00 00  returns 0x01 (0001ms, 0821ms total)
T1F34 027:128 JLINK_ReadMemU32(0xE0001058, 0x0001 Items, ...) -- CPU_ReadMem(4 bytes @ 0xE0001058) -- Data:  00 00 00 00  returns 0x01 (0002ms, 0823ms total)
T1F34 027:130 JLINK_Step() -- CPU_ReadMem(64 bytes @ 0x08004D00) -- Updating C cache (64 bytes @ 0x08004D00) -- Read from C cache (2 bytes @ 0x08004D0C) -- CPU_ReadMem(4 bytes @ 0xE0001004) -- Simulated  returns 0x00 (0004ms, 0827ms total)
T1F34 027:134 JLINK_ReadReg(R15 (PC))  returns 0x08004D14 (0000ms, 0827ms total)
T1F34 027:134 JLINK_ReadReg(XPSR)  returns 0x21000000 (0000ms, 0827ms total)
T1F34 027:134 JLINK_ReadReg(R0)  returns 0x00000001 (0001ms, 0828ms total)
T1F34 027:135 JLINK_ReadReg(R1)  returns 0x00000010 (0000ms, 0828ms total)
T1F34 027:135 JLINK_ReadReg(R2)  returns 0x40013000 (0000ms, 0828ms total)
T1F34 027:135 JLINK_ReadReg(R3)  returns 0x00000001 (0000ms, 0828ms total)
T1F34 027:135 JLINK_ReadReg(R4)  returns 0x080071CC (0000ms, 0828ms total)
T1F34 027:136 JLINK_ReadReg(R5)  returns 0x080071CC (0000ms, 0829ms total)
T1F34 027:136 JLINK_ReadReg(R6)  returns 0x200002B8 (0000ms, 0829ms total)
T1F34 027:136 JLINK_ReadReg(R7)  returns 0x0001E000 (0000ms, 0829ms total)
T1F34 027:136 JLINK_ReadReg(R8)  returns 0x00000001 (0000ms, 0829ms total)
T1F34 027:137 JLINK_ReadReg(R9)  returns 0x00000000 (0000ms, 0829ms total)
T1F34 027:137 JLINK_ReadReg(R10)  returns 0x200013F4 (0000ms, 0829ms total)
T1F34 027:137 JLINK_ReadReg(R11)  returns 0x000000F1 (0000ms, 0829ms total)
T1F34 027:137 JLINK_ReadReg(R12)  returns 0x00000000 (0000ms, 0829ms total)
T1F34 027:137 JLINK_ReadReg(R13 (SP))  returns 0x200014A8 (0001ms, 0830ms total)
T1F34 027:138 JLINK_ReadReg(R14)  returns 0x08001929 (0000ms, 0830ms total)
T1F34 027:138 JLINK_ReadReg(R15 (PC))  returns 0x08004D14 (0000ms, 0830ms total)
T1F34 027:138 JLINK_ReadReg(XPSR)  returns 0x21000000 (0000ms, 0830ms total)
T1F34 027:138 JLINK_ReadReg(MSP)  returns 0x200014A8 (0001ms, 0831ms total)
T1F34 027:139 JLINK_ReadReg(PSP)  returns 0x20001000 (0000ms, 0831ms total)
T1F34 027:139 JLINK_ReadReg(CFBP)  returns 0x00000000 (0000ms, 0831ms total)
T21C8 027:140 JLINK_ReadMem (0x200014AC, 0x0004 Bytes, ...) -- CPU_ReadMem(64 bytes @ 0x20001480) -- Updating C cache (64 bytes @ 0x20001480) -- Read from C cache (4 bytes @ 0x200014AC) -- Data:  33 4A 00 08  returns 0x00 (0002ms, 0833ms total)
T21C8 027:142 JLINK_ReadMem (0x200014A8, 0x0004 Bytes, ...) -- Read from C cache (4 bytes @ 0x200014A8) -- Data:  CC 71 00 08  returns 0x00 (0000ms, 0833ms total)
T21C8 027:142 JLINK_ReadMem (0x200014B4, 0x0004 Bytes, ...) -- Read from C cache (4 bytes @ 0x200014B4) -- Data:  5D 09 00 08  returns 0x00 (0001ms, 0834ms total)
T21C8 027:143 JLINK_ReadMem (0x00000000, 0x0004 Bytes, ...) -- CPU_ReadMem(4 bytes @ 0x00000004) -- CPU_ReadMem(64 bytes @ 0x08000000) -- Updating C cache (64 bytes @ 0x08000000) -- Read from C cache (4 bytes @ 0x08000000) -- Data:  00 04 00 20  returns 0x00 (0003ms, 0837ms total)
T21C8 027:146 JLINK_ReadMemU32(0xE0001004, 0x0001 Items, ...) -- Data:  99 93 AE 0C  returns 0x01 (0000ms, 0837ms total)
T21C8 027:166 JLINK_ReadMem (0x08004D14, 0x003C Bytes, ...) -- CPU_ReadMem(64 bytes @ 0x08004D40) -- Updating C cache (64 bytes @ 0x08004D40) -- Read from C cache (60 bytes @ 0x08004D14) -- Data:  96 E0 FC F7 5F FC 4C 49 08 70 4C A1 4E 48 FD F7 ...  returns 0x00 (0002ms, 0839ms total)
T1F34 027:418 JLINK_Step() -- Read from C cache (2 bytes @ 0x08004D14) -- Simulated  returns 0x00 (0000ms, 0839ms total)
T1F34 027:418 JLINK_ReadReg(R15 (PC))  returns 0x08004E44 (0000ms, 0839ms total)
T1F34 027:418 JLINK_ReadReg(XPSR)  returns 0x21000000 (0000ms, 0839ms total)
T1F34 027:418 JLINK_ReadReg(R0)  returns 0x00000001 (0000ms, 0839ms total)
T1F34 027:418 JLINK_ReadReg(R1)  returns 0x00000010 (0000ms, 0839ms total)
T1F34 027:418 JLINK_ReadReg(R2)  returns 0x40013000 (0001ms, 0840ms total)
T1F34 027:419 JLINK_ReadReg(R3)  returns 0x00000001 (0000ms, 0840ms total)
T1F34 027:419 JLINK_ReadReg(R4)  returns 0x080071CC (0000ms, 0840ms total)
T1F34 027:419 JLINK_ReadReg(R5)  returns 0x080071CC (0000ms, 0840ms total)
T1F34 027:419 JLINK_ReadReg(R6)  returns 0x200002B8 (0000ms, 0840ms total)
T1F34 027:419 JLINK_ReadReg(R7)  returns 0x0001E000 (0000ms, 0840ms total)
T1F34 027:419 JLINK_ReadReg(R8)  returns 0x00000001 (0000ms, 0840ms total)
T1F34 027:419 JLINK_ReadReg(R9)  returns 0x00000000 (0000ms, 0840ms total)
T1F34 027:419 JLINK_ReadReg(R10)  returns 0x200013F4 (0000ms, 0840ms total)
T1F34 027:419 JLINK_ReadReg(R11)  returns 0x000000F1 (0001ms, 0841ms total)
T1F34 027:420 JLINK_ReadReg(R12)  returns 0x00000000 (0000ms, 0841ms total)
T1F34 027:420 JLINK_ReadReg(R13 (SP))  returns 0x200014A8 (0000ms, 0841ms total)
T1F34 027:420 JLINK_ReadReg(R14)  returns 0x08001929 (0000ms, 0841ms total)
T1F34 027:420 JLINK_ReadReg(R15 (PC))  returns 0x08004E44 (0000ms, 0841ms total)
T1F34 027:420 JLINK_ReadReg(XPSR)  returns 0x21000000 (0000ms, 0841ms total)
T1F34 027:420 JLINK_ReadReg(MSP)  returns 0x200014A8 (0000ms, 0841ms total)
T1F34 027:420 JLINK_ReadReg(PSP)  returns 0x20001000 (0000ms, 0841ms total)
T1F34 027:420 JLINK_ReadReg(CFBP)  returns 0x00000000 (0000ms, 0841ms total)
T21C8 027:422 JLINK_ReadMem (0x200014AC, 0x0004 Bytes, ...) -- Read from C cache (4 bytes @ 0x200014AC) -- Data:  33 4A 00 08  returns 0x00 (0000ms, 0841ms total)
T21C8 027:422 JLINK_ReadMem (0x200014A8, 0x0004 Bytes, ...) -- Read from C cache (4 bytes @ 0x200014A8) -- Data:  CC 71 00 08  returns 0x00 (0000ms, 0841ms total)
T21C8 027:422 JLINK_ReadMem (0x200014B4, 0x0004 Bytes, ...) -- Read from C cache (4 bytes @ 0x200014B4) -- Data:  5D 09 00 08  returns 0x00 (0000ms, 0841ms total)
T21C8 027:422 JLINK_ReadMem (0x00000000, 0x0004 Bytes, ...) -- Read from C cache (4 bytes @ 0x08000000) -- Data:  00 04 00 20  returns 0x00 (0000ms, 0841ms total)
T21C8 027:422 JLINK_ReadMemU32(0xE0001004, 0x0001 Items, ...) -- Data:  99 93 AE 0C  returns 0x01 (0000ms, 0841ms total)
T21C8 027:426 JLINK_ReadMem (0x08004E44, 0x003C Bytes, ...) -- CPU_ReadMem(64 bytes @ 0x08004E40) -- Updating C cache (64 bytes @ 0x08004E40) -- Read from C cache (60 bytes @ 0x08004E44) -- Data:  00 BF 10 BD 0E 00 00 20 14 00 00 20 0D 0A CA B6 ...  returns 0x00 (0002ms, 0843ms total)
T1F34 030:642 JLINK_Step() -- Read from C cache (2 bytes @ 0x08004E44) -- Simulated  returns 0x00 (0001ms, 0844ms total)
T1F34 030:643 JLINK_ReadReg(R15 (PC))  returns 0x08004E46 (0001ms, 0845ms total)
T1F34 030:644 JLINK_ReadReg(XPSR)  returns 0x21000000 (0000ms, 0845ms total)
T1F34 030:644 JLINK_ReadReg(R0)  returns 0x00000001 (0000ms, 0845ms total)
T1F34 030:644 JLINK_ReadReg(R1)  returns 0x00000010 (0000ms, 0845ms total)
T1F34 030:644 JLINK_ReadReg(R2)  returns 0x40013000 (0000ms, 0845ms total)
T1F34 030:644 JLINK_ReadReg(R3)  returns 0x00000001 (0000ms, 0845ms total)
T1F34 030:644 JLINK_ReadReg(R4)  returns 0x080071CC (0000ms, 0845ms total)
T1F34 030:644 JLINK_ReadReg(R5)  returns 0x080071CC (0000ms, 0845ms total)
T1F34 030:644 JLINK_ReadReg(R6)  returns 0x200002B8 (0000ms, 0845ms total)
T1F34 030:644 JLINK_ReadReg(R7)  returns 0x0001E000 (0000ms, 0845ms total)
T1F34 030:644 JLINK_ReadReg(R8)  returns 0x00000001 (0000ms, 0845ms total)
T1F34 030:644 JLINK_ReadReg(R9)  returns 0x00000000 (0000ms, 0845ms total)
T1F34 030:644 JLINK_ReadReg(R10)  returns 0x200013F4 (0000ms, 0845ms total)
T1F34 030:645 JLINK_ReadReg(R11)  returns 0x000000F1 (0000ms, 0846ms total)
T1F34 030:645 JLINK_ReadReg(R12)  returns 0x00000000 (0000ms, 0846ms total)
T1F34 030:645 JLINK_ReadReg(R13 (SP))  returns 0x200014A8 (0000ms, 0846ms total)
T1F34 030:645 JLINK_ReadReg(R14)  returns 0x08001929 (0000ms, 0846ms total)
T1F34 030:645 JLINK_ReadReg(R15 (PC))  returns 0x08004E46 (0000ms, 0846ms total)
T1F34 030:645 JLINK_ReadReg(XPSR)  returns 0x21000000 (0000ms, 0846ms total)
T1F34 030:645 JLINK_ReadReg(MSP)  returns 0x200014A8 (0000ms, 0846ms total)
T1F34 030:645 JLINK_ReadReg(PSP)  returns 0x20001000 (0000ms, 0846ms total)
T1F34 030:645 JLINK_ReadReg(CFBP)  returns 0x00000000 (0000ms, 0846ms total)
T21C8 030:646 JLINK_ReadMem (0x200014AC, 0x0004 Bytes, ...) -- Read from C cache (4 bytes @ 0x200014AC) -- Data:  33 4A 00 08  returns 0x00 (0000ms, 0846ms total)
T21C8 030:646 JLINK_ReadMem (0x200014A8, 0x0004 Bytes, ...) -- Read from C cache (4 bytes @ 0x200014A8) -- Data:  CC 71 00 08  returns 0x00 (0000ms, 0846ms total)
T21C8 030:646 JLINK_ReadMem (0x200014B4, 0x0004 Bytes, ...) -- Read from C cache (4 bytes @ 0x200014B4) -- Data:  5D 09 00 08  returns 0x00 (0000ms, 0846ms total)
T21C8 030:646 JLINK_ReadMem (0x00000000, 0x0004 Bytes, ...) -- Read from C cache (4 bytes @ 0x08000000) -- Data:  00 04 00 20  returns 0x00 (0000ms, 0846ms total)
T21C8 030:646 JLINK_ReadMemU32(0xE0001004, 0x0001 Items, ...) -- Data:  99 93 AE 0C  returns 0x01 (0000ms, 0846ms total)
T21C8 030:658 JLINK_ReadMem (0x08004E46, 0x0002 Bytes, ...) -- Read from C cache (2 bytes @ 0x08004E46) -- Data:  10 BD  returns 0x00 (0000ms, 0846ms total)
T21C8 030:658 JLINK_ReadMem (0x08004E48, 0x003C Bytes, ...) -- CPU_ReadMem(64 bytes @ 0x08004E80) -- Updating C cache (64 bytes @ 0x08004E80) -- Read from C cache (60 bytes @ 0x08004E48) -- Data:  0E 00 00 20 14 00 00 20 0D 0A CA B6 B1 F0 C2 EB ...  returns 0x00 (0002ms, 0848ms total)
T1F34 031:434 JLINK_Step() -- Read from C cache (2 bytes @ 0x08004E46) -- Read from C cache (8 bytes @ 0x200014A8) -- Simulated  returns 0x00 (0001ms, 0849ms total)
T1F34 031:435 JLINK_ReadReg(R15 (PC))  returns 0x08004A32 (0000ms, 0849ms total)
T1F34 031:435 JLINK_ReadReg(XPSR)  returns 0x21000000 (0000ms, 0849ms total)
T1F34 031:435 JLINK_ReadMem (0x08004A30, 0x003C Bytes, ...) -- CPU_ReadMem(128 bytes @ 0x08004A00) -- Updating C cache (128 bytes @ 0x08004A00) -- Read from C cache (60 bytes @ 0x08004A30) -- Data:  57 F9 FC E7 B4 AE BF DA B3 F5 CA BC BB AF B3 C9 ...  returns 0x00 (0002ms, 0851ms total)
T1F34 031:437 JLINK_Step() -- Read from C cache (2 bytes @ 0x08004A32) -- Simulated  returns 0x00 (0000ms, 0851ms total)
T1F34 031:437 JLINK_ReadReg(R15 (PC))  returns 0x08004A2E (0000ms, 0851ms total)
T1F34 031:438 JLINK_ReadReg(XPSR)  returns 0x21000000 (0000ms, 0852ms total)
T1F34 031:438 JLINK_ReadReg(R0)  returns 0x00000001 (0000ms, 0852ms total)
T1F34 031:438 JLINK_ReadReg(R1)  returns 0x00000010 (0000ms, 0852ms total)
T1F34 031:438 JLINK_ReadReg(R2)  returns 0x40013000 (0000ms, 0852ms total)
T1F34 031:438 JLINK_ReadReg(R3)  returns 0x00000001 (0000ms, 0852ms total)
T1F34 031:438 JLINK_ReadReg(R4)  returns 0x080071CC (0000ms, 0852ms total)
T1F34 031:438 JLINK_ReadReg(R5)  returns 0x080071CC (0000ms, 0852ms total)
T1F34 031:438 JLINK_ReadReg(R6)  returns 0x200002B8 (0000ms, 0852ms total)
T1F34 031:438 JLINK_ReadReg(R7)  returns 0x0001E000 (0000ms, 0852ms total)
T1F34 031:438 JLINK_ReadReg(R8)  returns 0x00000001 (0000ms, 0852ms total)
T1F34 031:438 JLINK_ReadReg(R9)  returns 0x00000000 (0001ms, 0853ms total)
T1F34 031:439 JLINK_ReadReg(R10)  returns 0x200013F4 (0000ms, 0853ms total)
T1F34 031:439 JLINK_ReadReg(R11)  returns 0x000000F1 (0000ms, 0853ms total)
T1F34 031:439 JLINK_ReadReg(R12)  returns 0x00000000 (0000ms, 0853ms total)
T1F34 031:439 JLINK_ReadReg(R13 (SP))  returns 0x200014B0 (0000ms, 0853ms total)
T1F34 031:439 JLINK_ReadReg(R14)  returns 0x08001929 (0000ms, 0853ms total)
T1F34 031:439 JLINK_ReadReg(R15 (PC))  returns 0x08004A2E (0000ms, 0853ms total)
T1F34 031:439 JLINK_ReadReg(XPSR)  returns 0x21000000 (0000ms, 0853ms total)
T1F34 031:439 JLINK_ReadReg(MSP)  returns 0x200014B0 (0000ms, 0853ms total)
T1F34 031:439 JLINK_ReadReg(PSP)  returns 0x20001000 (0000ms, 0853ms total)
T1F34 031:439 JLINK_ReadReg(CFBP)  returns 0x00000000 (0000ms, 0853ms total)
T21C8 031:441 JLINK_ReadMem (0x200014B4, 0x0004 Bytes, ...) -- Read from C cache (4 bytes @ 0x200014B4) -- Data:  5D 09 00 08  returns 0x00 (0000ms, 0853ms total)
T21C8 031:442 JLINK_ReadMem (0x00000000, 0x0004 Bytes, ...) -- Read from C cache (4 bytes @ 0x08000000) -- Data:  00 04 00 20  returns 0x00 (0000ms, 0853ms total)
T21C8 031:442 JLINK_ReadMemU32(0xE0001004, 0x0001 Items, ...) -- Data:  99 93 AE 0C  returns 0x01 (0000ms, 0853ms total)
T21C8 031:446 JLINK_ReadMem (0x08004A2E, 0x0002 Bytes, ...) -- Read from C cache (2 bytes @ 0x08004A2E) -- Data:  00 F0  returns 0x00 (0000ms, 0854ms total)
T21C8 031:446 JLINK_ReadMem (0x08004A30, 0x003C Bytes, ...) -- Read from C cache (60 bytes @ 0x08004A30) -- Data:  57 F9 FC E7 B4 AE BF DA B3 F5 CA BC BB AF B3 C9 ...  returns 0x00 (0000ms, 0854ms total)
T1F34 033:506 JLINK_Step() -- Read from C cache (2 bytes @ 0x08004A2E) -- Read from C cache (2 bytes @ 0x08004A30) -- Simulated  returns 0x00 (0002ms, 0856ms total)
T1F34 033:508 JLINK_ReadReg(R15 (PC))  returns 0x08004CE0 (0000ms, 0856ms total)
T1F34 033:508 JLINK_ReadReg(XPSR)  returns 0x21000000 (0000ms, 0856ms total)
T1F34 033:508 JLINK_ReadReg(R0)  returns 0x00000001 (0000ms, 0856ms total)
T1F34 033:508 JLINK_ReadReg(R1)  returns 0x00000010 (0000ms, 0856ms total)
T1F34 033:508 JLINK_ReadReg(R2)  returns 0x40013000 (0000ms, 0856ms total)
T1F34 033:508 JLINK_ReadReg(R3)  returns 0x00000001 (0000ms, 0856ms total)
T1F34 033:508 JLINK_ReadReg(R4)  returns 0x080071CC (0000ms, 0856ms total)
T1F34 033:508 JLINK_ReadReg(R5)  returns 0x080071CC (0000ms, 0856ms total)
T1F34 033:508 JLINK_ReadReg(R6)  returns 0x200002B8 (0001ms, 0857ms total)
T1F34 033:509 JLINK_ReadReg(R7)  returns 0x0001E000 (0000ms, 0857ms total)
T1F34 033:509 JLINK_ReadReg(R8)  returns 0x00000001 (0000ms, 0857ms total)
